"Freq [GHz]","re(S(FloquetPort1,FloquetPort2)) []","im(S(FloquetPort1,FloquetPort2)) []"
1,0.989195693407682,-0.141884824421063
1.0005600224009,0.989183624579581,-0.141963731872061
1.00112004480179,0.989171549051647,-0.142042638404964
1.00168006720269,0.989159466823921,-0.142121544019284
1.00224008960358,0.989147377896444,-0.142200448714535
1.00280011200448,0.989135282269262,-0.142279352490199
1.00336013440538,0.989123179942418,-0.142358255345777
1.00392015680627,0.989111070915954,-0.142437157280772
1.00448017920717,0.989098955189917,-0.142516058294666
1.00504020160806,0.989086832764346,-0.142594958386968
1.00560022400896,0.989074703639287,-0.142673857557174
1.00616024640986,0.989062567814786,-0.142752755804759
1.00672026881075,0.989050425290883,-0.142831653129237
1.00728029121165,0.989038276067622,-0.142910549530109
1.00784031361254,0.989026120145049,-0.142989445006851
1.00840033601344,0.989013957523207,-0.14306833955896
1.00896035841434,0.989001788202137,-0.143147233185956
1.00952038081523,0.988989612181885,-0.143226125887309
1.01008040321613,0.988977429462493,-0.143305017662533
1.01064042561702,0.988965240044007,-0.143383908511105
1.01120044801792,0.988953043926468,-0.143462798432537
1.01176047041882,0.988940841109921,-0.143541687426318
1.01232049281971,0.98892863159441,-0.143620575491936
1.01288051522061,0.988916415379978,-0.1436994626289
1.0134405376215,0.988904192466668,-0.143778348836691
1.0140005600224,0.988891962854524,-0.143857234114821
1.0145605824233,0.98887972654359,-0.143936118462776
1.01512060482419,0.988867483533909,-0.144015001880046
1.01568062722509,0.988855233825524,-0.14409388436614
1.01624064962599,0.98884297741848,-0.144172765920547
1.01680067202688,0.988830714312818,-0.14425164654277
1.01736069442778,0.988818444508585,-0.144330526232289
1.01792071682867,0.988806168005822,-0.144409404988614
1.01848073922957,0.988793884804575,-0.144488282811228
1.01904076163047,0.988781594904885,-0.144567159699631
1.01960078403136,0.988769298306797,-0.144646035653327
1.02016080643226,0.988756995010354,-0.144724910671798
1.02072082883315,0.988744685015599,-0.144803784754552
1.02128085123405,0.988732368322578,-0.144882657901073
1.02184087363495,0.988720044931332,-0.144961530110861
1.02240089603584,0.988707714841904,-0.145040401383419
1.02296091843674,0.988695378054339,-0.145119271718244
1.02352094083763,0.988683034568684,-0.1451981411148
1.02408096323853,0.988670684384975,-0.145277009572629
1.02464098563943,0.988658327503262,-0.145355877091189
1.02520100804032,0.988645963923585,-0.145434743669997
1.02576103044122,0.988633593645987,-0.145513609308549
1.02632105284211,0.988621216670516,-0.145592474006325
1.02688107524301,0.988608832997211,-0.145671337762836
1.02744109764391,0.988596442626119,-0.145750200577555
1.0280011200448,0.988584045557281,-0.145829062449999
1.0285611424457,0.988571641790741,-0.145907923379665
1.02912116484659,0.988559231326544,-0.145986783366032
1.02968118724749,0.988546814164732,-0.146065642408612
1.03024120964839,0.988534390305349,-0.146144500506893
1.03080123204928,0.98852195974844,-0.146223357660361
1.03136125445018,0.988509522494046,-0.146302213868528
1.03192127685107,0.988497078542212,-0.146381069130887
1.03248129925197,0.988484627892984,-0.146459923446908
1.03304132165287,0.988472170546401,-0.146538776816121
1.03360134405376,0.988459706502508,-0.146617629238014
1.03416136645466,0.98844723576135,-0.146696480712069
1.03472138885555,0.988434758322972,-0.146775331237778
1.03528141125645,0.988422274187411,-0.146854180814671
1.03584143365735,0.988409783354718,-0.146933029442204
1.03640145605824,0.988397285824934,-0.147011877119892
1.03696147845914,0.988384781598102,-0.147090723847221
1.03752150086003,0.988372270674265,-0.147169569623697
1.03808152326093,0.98835975305347,-0.147248414448802
1.03864154566183,0.988347228735755,-0.147327258322055
1.03920156806272,0.988334697721171,-0.147406101242914
1.03976159046362,0.988322160009754,-0.147484943210916
1.04032161286451,0.988309615601553,-0.147563784225528
1.04088163526541,0.98829706449661,-0.147642624286249
1.04144165766631,0.988284506694969,-0.147721463392578
1.0420016800672,0.988271942196672,-0.147800301544019
1.0425617024681,0.988259371001764,-0.147879138740067
1.04312172486899,0.988246793110289,-0.147957974980203
1.04368174726989,0.988234208522291,-0.148036810263924
1.04424176967079,0.988221617237811,-0.148115644590745
1.04480179207168,0.988209019256897,-0.148194477960139
1.04536181447258,0.988196414579588,-0.148273310371621
1.04592183687348,0.988183803205933,-0.148352141824659
1.04648185927437,0.988171185135972,-0.148430972318772
1.04704188167527,0.988158560369749,-0.148509801853456
1.04760190407616,0.988145928907309,-0.14858863042819
1.04816192647706,0.988133290748694,-0.148667458042488
1.04872194887796,0.988120645893949,-0.148746284695835
1.04928197127885,0.988107994343119,-0.148825110387719
1.04984199367975,0.988095336096245,-0.148903935117651
1.05040201608064,0.988082671153372,-0.148982758885126
1.05096203848154,0.988069999514545,-0.149061581689625
1.05152206088244,0.988057321179807,-0.149140403530652
1.05208208328333,0.988044636149203,-0.149219224407691
1.05264210568423,0.988031944422774,-0.149298044320258
1.05320212808512,0.988019246000564,-0.149376863267844
1.05376215048602,0.98800654088262,-0.149455681249931
1.05432217288692,0.987993829068984,-0.149534498266023
1.05488219528781,0.987981110559699,-0.14961331431562
1.05544221768871,0.987968385354811,-0.149692129398204
1.0560022400896,0.987955653454365,-0.149770943513271
1.0565622624905,0.987942914858398,-0.149849756660346
1.0571222848914,0.987930169566961,-0.149928568838888
1.05768230729229,0.987917417580094,-0.150007380048411
1.05824232969319,0.987904658897845,-0.1500861902884
1.05880235209408,0.987891893520253,-0.150164999558363
1.05936237449498,0.987879121447366,-0.150243807857781
1.05992239689588,0.987866342679224,-0.150322615186173
1.06048241929677,0.987853557215876,-0.150401421543008
1.06104244169767,0.987840765057363,-0.150480226927788
1.06160246409856,0.987827966203728,-0.150559031340015
1.06216248649946,0.987815160655016,-0.150637834779193
1.06272250890036,0.987802348411274,-0.150716637244789
1.06328253130125,0.987789529472539,-0.150795438736338
1.06384255370215,0.987776703838864,-0.150874239253291
1.06440257610304,0.987763871510287,-0.15095303879517
1.06496259850394,0.987751032486853,-0.151031837361476
1.06552262090484,0.987738186768607,-0.151110634951693
1.06608264330573,0.987725334355594,-0.151189431565308
1.06664266570663,0.987712475247856,-0.151268227201836
1.06720268810752,0.987699609445439,-0.151347021860753
1.06776271050842,0.987686736948386,-0.151425815541572
1.06832273290932,0.987673857756741,-0.15150460824378
1.06888275531021,0.98766097187055,-0.151583399966863
1.06944277771111,0.987648079289855,-0.151662190710337
1.070002800112,0.987635180014701,-0.151740980473689
1.0705628225129,0.987622274045132,-0.151819769256406
1.0711228449138,0.987609361381194,-0.15189855705799
1.07168286731469,0.987596442022929,-0.151977343877941
1.07224288971559,0.987583515970383,-0.152056129715744
1.07280291211648,0.9875705832236,-0.15213491457089
1.07336293451738,0.987557643782623,-0.152213698442894
1.07392295691828,0.987544697647496,-0.152292481331253
1.07448297931917,0.987531744818268,-0.152371263235428
1.07504300172007,0.987518785294976,-0.152450044154961
1.07560302412096,0.987505819077672,-0.152528824089299
1.07616304652186,0.987492846166394,-0.152607603037985
1.07672306892276,0.987479866561191,-0.152686381000479
1.07728309132365,0.987466880262105,-0.152765157976292
1.07784311372455,0.987453887269181,-0.152843933964913
1.07840313612545,0.987440887582462,-0.152922708965854
1.07896315852634,0.987427881201996,-0.153001482978586
1.07952318092724,0.987414868127826,-0.153080256002612
1.08008320332813,0.987401848359995,-0.153159028037434
1.08064322572903,0.987388821898548,-0.153237799082556
1.08120324812993,0.98737578874353,-0.153316569137461
1.08176327053082,0.987362748894987,-0.153395338201634
1.08232329293172,0.987349702352963,-0.15347410627458
1.08288331533261,0.987336649117499,-0.153552873355814
1.08344333773351,0.987323589188647,-0.153631639444793
1.08400336013441,0.987310522566444,-0.153710404541048
1.0845633825353,0.98729744925094,-0.153789168644051
1.0851234049362,0.987284369242176,-0.153867931753314
1.08568342733709,0.987271282540198,-0.153946693868328
1.08624344973799,0.987258189145054,-0.154025454988569
1.08680347213889,0.987245089056784,-0.15410421511356
1.08736349453978,0.987231982275434,-0.154182974242791
1.08792351694068,0.98721886880105,-0.154261732375745
1.08848353934157,0.987205748633679,-0.154340489511912
1.08904356174247,0.987192621773361,-0.154419245650812
1.08960358414337,0.987179488220143,-0.154498000791926
1.09016360654426,0.987166347974069,-0.154576754934758
1.09072362894516,0.987153201035187,-0.154655508078791
1.09128365134605,0.987140047403538,-0.154734260223529
1.09184367374695,0.98712688707917,-0.15481301136846
1.09240369614785,0.987113720062127,-0.154891761513085
1.09296371854874,0.987100546352453,-0.154970510656901
1.09352374094964,0.987087365950192,-0.155049258799414
1.09408376335053,0.987074178855392,-0.155128005940095
1.09464378575143,0.987060985068096,-0.155206752078459
1.09520380815233,0.98704778458835,-0.155285497213996
1.09576383055322,0.987034577416201,-0.155364241346187
1.09632385295412,0.987021363551693,-0.155442984474537
1.09688387535501,0.987008142994869,-0.155521726598547
1.09744389775591,0.986994915745775,-0.155600467717719
1.09800392015681,0.986981681804458,-0.155679207831525
1.0985639425577,0.986968441170962,-0.155757946939481
1.0991239649586,0.986955193845331,-0.155836685041084
1.09968398735949,0.986941939827613,-0.15591542213581
1.10024400976039,0.986928679117853,-0.155994158223165
1.10080403216129,0.986915411716092,-0.156072893302658
1.10136405456218,0.986902137622378,-0.156151627373776
1.10192407696308,0.986888856836761,-0.156230360435992
1.10248409936397,0.98687556935928,-0.156309092488827
1.10304412176487,0.986862275189982,-0.156387823531778
1.10360414416577,0.986848974328914,-0.156466553564331
1.10416416656666,0.986835666776119,-0.156545282585988
1.10472418896756,0.986822352531648,-0.156624010596221
1.10528421136845,0.98680903159554,-0.156702737594561
1.10584423376935,0.986795703967843,-0.156781463580485
1.10640425617025,0.986782369648604,-0.15686018855349
1.10696427857114,0.986769028637868,-0.156938912513061
1.10752430097204,0.986755680935679,-0.157017635458713
1.10808432337293,0.986742326542084,-0.157096357389937
1.10864434577383,0.986728965457128,-0.157175078306222
1.10920436817473,0.986715597680858,-0.157253798207065
1.10976439057562,0.986702223213317,-0.157332517091966
1.11032441297652,0.986688842054554,-0.157411234960414
1.11088443537742,0.986675454204614,-0.157489951811908
1.11144445777831,0.986662059663541,-0.157568667645948
1.11200448017921,0.986648658431384,-0.15764738246202
1.1125645025801,0.986635250508186,-0.157726096259628
1.113124524981,0.986621835893991,-0.157804809038276
1.1136845473819,0.986608414588851,-0.157883520797433
1.11424456978279,0.986594986592809,-0.157962231536613
1.11480459218369,0.98658155190591,-0.158040941255306
1.11536461458458,0.986568110528202,-0.158119649953011
1.11592463698548,0.986554662459727,-0.158198357629236
1.11648465938638,0.986541207700537,-0.158277064283447
1.11704468178727,0.986527746250672,-0.158355769915171
1.11760470418817,0.986514278110184,-0.158434474523875
1.11816472658906,0.986500803279116,-0.158513178109069
1.11872474898996,0.986487321757513,-0.15859188067026
1.11928477139086,0.986473833545423,-0.158670582206931
1.11984479379175,0.986460338642893,-0.158749282718568
1.12040481619265,0.986446837049967,-0.158827982204687
1.12096483859354,0.986433328766695,-0.158906680664762
1.12152486099444,0.986419813793119,-0.158985378098311
1.12208488339534,0.986406292129287,-0.159064074504819
1.12264490579623,0.986392763775248,-0.159142769883772
1.12320492819713,0.986379228731044,-0.159221464234685
1.12376495059802,0.986365686996726,-0.159300157557035
1.12432497299892,0.986352138572336,-0.159378849850335
1.12488499539982,0.986338583457923,-0.159457541114075
1.12544501780071,0.986325021653531,-0.159536231347763
1.12600504020161,0.986311453159211,-0.159614920550864
1.1265650626025,0.986297877975008,-0.159693608722893
1.1271250850034,0.986284296100967,-0.15977229586334
1.1276851074043,0.986270707537137,-0.159850981971703
1.12824512980519,0.986257112283563,-0.159929667047481
1.12880515220609,0.986243510340293,-0.160008351090163
1.12936517460698,0.986229901707373,-0.160087034099252
1.12992519700788,0.98621628638485,-0.160165716074238
1.13048521940878,0.986202664372771,-0.160244397014619
1.13104524180967,0.986189035671182,-0.160323076919894
1.13160526421057,0.98617540028013,-0.160401755789554
1.13216528661146,0.986161758199664,-0.160480433623098
1.13272530901236,0.986148109429827,-0.160559110420031
1.13328533141326,0.98613445397067,-0.160637786179826
1.13384535381415,0.986120791822239,-0.160716460901993
1.13440537621505,0.986107122984578,-0.160795134586038
1.13496539861594,0.98609344745774,-0.160873807231432
1.13552542101684,0.986079765241766,-0.160952478837695
1.13608544341774,0.986066076336709,-0.1610311494043
1.13664546581863,0.986052380742612,-0.161109818930756
1.13720548821953,0.986038678459523,-0.161188487416567
1.13776551062042,0.986024969487492,-0.161267154861209
1.13832553302132,0.986011253826561,-0.1613458212642
1.13888555542222,0.985997531476781,-0.161424486625023
1.13944557782311,0.985983802438201,-0.161503150943164
1.14000560022401,0.98597006671086,-0.161581814218168
1.14056562262491,0.985956324294817,-0.161660476449464
1.1411256450258,0.985942575190115,-0.161739137636568
1.1416856674267,0.9859288193968,-0.161817797778995
1.14224568982759,0.98591505691492,-0.161896456876232
1.14280571222849,0.985901287744523,-0.161975114927772
1.14336573462939,0.985887511885657,-0.162053771933112
1.14392575703028,0.985873729338371,-0.162132427891738
1.14448577943118,0.98585994010271,-0.162211082803166
1.14504580183207,0.985846144178722,-0.162289736666886
1.14560582423297,0.985832341566456,-0.162368389482389
1.14616584663387,0.985818532265959,-0.162447041249171
1.14672586903476,0.98580471627728,-0.162525691966731
1.14728589143566,0.985790893600465,-0.162604341634562
1.14784591383655,0.985777064235564,-0.162682990252163
1.14840593623745,0.985763228182622,-0.16276163781904
1.14896595863835,0.985749385441689,-0.162840284334678
1.14952598103924,0.985735536012815,-0.162918929798561
1.15008600344014,0.985721679896047,-0.162997574210194
1.15064602584103,0.985707817091432,-0.163076217569079
1.15120604824193,0.985693947599019,-0.163154859874705
1.15176607064283,0.985680071418853,-0.163233501126586
1.15232609304372,0.985666188550987,-0.163312141324192
1.15288611544462,0.985652298995468,-0.163390780467029
1.15344613784551,0.985638402752341,-0.163469418554612
1.15400616024641,0.985624499821659,-0.163548055586403
1.15456618264731,0.985610590203462,-0.163626691561958
1.1551262050482,0.985596673897811,-0.163705326480689
1.1556862274491,0.985582750904746,-0.163783960342146
1.15624624984999,0.985568821224321,-0.1638625931458
1.15680627225089,0.985554884856578,-0.163941224891175
1.15736629465179,0.985540941801571,-0.164019855577737
1.15792631705268,0.985526992059344,-0.164098485205013
1.15848633945358,0.985513035629949,-0.164177113772482
1.15904636185447,0.985499072513433,-0.164255741279641
1.15960638425537,0.985485102709847,-0.164334367725987
1.16016640665627,0.985471126219237,-0.164412993111016
1.16072642905716,0.985457143041654,-0.164491617434224
1.16128645145806,0.985443153177148,-0.164570240695095
1.16184647385895,0.985429156625764,-0.164648862893152
1.16240649625985,0.98541515338755,-0.164727484027891
1.16296651866075,0.985401143462561,-0.164806104098778
1.16352654106164,0.985387126850842,-0.164884723105327
1.16408656346254,0.985373103552444,-0.164963341047033
1.16464658586343,0.985359073567411,-0.165041957923419
1.16520660826433,0.9853450368958,-0.165120573733927
1.16576663066523,0.985330993537656,-0.165199188478081
1.16632665306612,0.985316943493029,-0.16527780215538
1.16688667546702,0.985302886761966,-0.165356414765326
1.16744669786791,0.98528882334452,-0.165435026307398
1.16800672026881,0.985274753240738,-0.165513636781111
1.16856674266971,0.985260676450668,-0.165592246185952
1.1691267650706,0.985246592974365,-0.165670854521405
1.1696867874715,0.985232502811875,-0.165749461786978
1.17024680987239,0.98521840596324,-0.165828067982208
1.17080683227329,0.985204302428525,-0.165906673106511
1.17136685467419,0.985190192207768,-0.165985277159436
1.17192687707508,0.985176075301024,-0.166063880140467
1.17248689947598,0.98516195170834,-0.1661424820491
1.17304692187688,0.985147821429767,-0.166221082884832
1.17360694427777,0.985133684465352,-0.166299682647173
1.17416696667867,0.985119540815151,-0.166378281335593
1.17472698907956,0.985105390479208,-0.166456878949603
1.17528701148046,0.985091233457574,-0.166535475488709
1.17584703388136,0.985077069750299,-0.166614070952409
1.17640705628225,0.985062899357438,-0.166692665340159
1.17696707868315,0.985048722279035,-0.166771258651499
1.17752710108404,0.985034538515139,-0.166849850885922
1.17808712348494,0.985020348065809,-0.166928442042886
1.17864714588584,0.985006150931087,-0.167007032121928
1.17920716828673,0.984991947111022,-0.167085621122556
1.17976719068763,0.984977736605667,-0.167164209044241
1.18032721308852,0.984963519415077,-0.167242795886467
1.18088723548942,0.984949295539296,-0.167321381648755
1.18144725789032,0.984935064978375,-0.167399966330602
1.18200728029121,0.984920827732368,-0.167478549931483
1.18256730269211,0.98490658380132,-0.167557132450929
1.183127325093,0.984892333185282,-0.167635713888435
1.1836873474939,0.984878075884304,-0.167714294243502
1.1842473698948,0.984863811898441,-0.167792873515598
1.18480739229569,0.984849541227734,-0.167871451704273
1.18536741469659,0.984835263872228,-0.16795002880906
1.18592743709748,0.984820979831972,-0.16802860482947
1.18648745949838,0.98480668910699,-0.168107179765151
1.18704748189928,0.984792391697273,-0.168185753615955
1.18760750430017,0.984778087602562,-0.168264326383185
1.18816752670107,0.984763776969367,-0.168342897209595
1.18872754910196,0.984749459363302,-0.168421468636031
1.18928757150286,0.984735135215168,-0.168500038142197
1.18984759390376,0.984720804383068,-0.168578606557972
1.19040761630465,0.984706466866735,-0.168657173884696
1.19096763870555,0.984692122666174,-0.168735740122142
1.19152766110644,0.984677771781411,-0.168814305269951
1.19208768350734,0.984663414212485,-0.168892869327705
1.19264770590824,0.984649049959446,-0.168971432294893
1.19320772830913,0.984634679022345,-0.169049994171018
1.19376775071003,0.984620301401228,-0.169128554955609
1.19432777311092,0.98460591709615,-0.169207114648147
1.19488779551182,0.984591526107156,-0.169285673248166
1.19544781791272,0.984577128434303,-0.169364230755126
1.19600784031361,0.984562724077636,-0.169442787168564
1.19656786271451,0.984548313037216,-0.169521342487922
1.1971278851154,0.984533895313086,-0.169599896712751
1.1976879075163,0.9845194709053,-0.169678449842536
1.1982479299172,0.98450503981391,-0.16975700187677
1.19880795231809,0.984490602038966,-0.169835552814953
1.19936797471899,0.984476157580522,-0.169914102656581
1.19992799711988,0.984461706438632,-0.169992651401139
1.20048801952078,0.984447248613345,-0.170071199048137
1.20104804192168,0.984432784104716,-0.170149745597058
1.20160806432257,0.984418312912789,-0.170228291047438
1.20216808672347,0.984403835037624,-0.170306835398738
1.20272810912436,0.984389350479271,-0.170385378650464
1.20328813152526,0.984374859237785,-0.170463920802103
1.20384815392616,0.984360361313209,-0.170542461853189
1.20440817632705,0.984345856705607,-0.170621001803168
1.20496819872795,0.984331345415022,-0.170699540651592
1.20552822112885,0.984316827441514,-0.1707780783979
1.20608824352974,0.984302302785129,-0.170856615041635
1.20664826593064,0.984287771445926,-0.170935150582263
1.20720828833153,0.984273233423952,-0.171013685019309
