"Freq [GHz]","re(S(FloquetPort1,FloquetPort1)) []","im(S(FloquetPort1,FloquetPort1)) []"
1,-0.00512536249351893,-0.0354638065874769
1.0005600224009,-0.0051310555087854,-0.0354831696090402
1.00112004480179,-0.00513675162982382,-0.0355025318027404
1.00168006720269,-0.00514245085653632,-0.0355218931681242
1.00224008960358,-0.00514815318882485,-0.035541253704737
1.00280011200448,-0.00515385862659029,-0.0355606134121255
1.00336013440538,-0.00515956716973422,-0.0355799722898355
1.00392015680627,-0.00516527881815812,-0.0355993303374127
1.00448017920717,-0.00517099357176283,-0.0356186875544039
1.00504020160806,-0.00517671143045005,-0.0356380439403544
1.00560022400896,-0.00518243239412097,-0.0356573994948109
1.00616024640986,-0.00518815646267605,-0.0356767542173193
1.00672026881075,-0.00519388363601707,-0.0356961081074253
1.00728029121165,-0.00519961391404538,-0.0357154611646754
1.00784031361254,-0.00520534729666124,-0.0357348133886152
1.00840033601344,-0.00521108378376591,-0.0357541647787915
1.00896035841434,-0.00521682337526111,-0.0357735153347497
1.00952038081523,-0.00522256607104692,-0.0357928650560357
1.01008040321613,-0.00522831187102504,-0.0358122139421963
1.01064042561702,-0.00523406077509557,-0.0358315619927767
1.01120044801792,-0.00523981278316013,-0.0358509092073236
1.01176047041882,-0.00524556789511922,-0.0358702555853828
1.01232049281971,-0.00525132611087334,-0.0358896011265
1.01288051522061,-0.00525708743032388,-0.0359089458302218
1.0134405376215,-0.00526285185337095,-0.0359282896960937
1.0140005600224,-0.00526861937991586,-0.0359476327236622
1.0145605824233,-0.00527439000985895,-0.035966974912473
1.01512060482419,-0.00528016374310061,-0.035986316262072
1.01568062722509,-0.00528594057954201,-0.0360056567720057
1.01624064962599,-0.00529172051908343,-0.0360249964418198
1.01680067202688,-0.00529750356162563,-0.0360443352710599
1.01736069442778,-0.00530328970706866,-0.0360636732592729
1.01792071682867,-0.00530907895531334,-0.0360830104060039
1.01848073922957,-0.00531487130625984,-0.0361023467107997
1.01904076163047,-0.00532066675980852,-0.0361216821732059
1.01960078403136,-0.00532646531586012,-0.0361410167927682
1.02016080643226,-0.00533226697431455,-0.0361603505690333
1.02072082883315,-0.00533807173507238,-0.0361796835015463
1.02128085123405,-0.00534387959803363,-0.0361990155898542
1.02184087363495,-0.00534969056309854,-0.0362183468335024
1.02240089603584,-0.00535550463016758,-0.0362376772320367
1.02296091843674,-0.005361321799141,-0.0362570067850035
1.02352094083763,-0.0053671420699176,-0.0362763354919485
1.02408096323853,-0.00537296544239936,-0.0362956633524179
1.02464098563943,-0.00537879191648483,-0.0363149903659578
1.02520100804032,-0.00538462149207478,-0.0363343165321135
1.02576103044122,-0.00539045416906921,-0.0363536418504317
1.02632105284211,-0.00539628994736743,-0.0363729663204578
1.02688107524301,-0.00540212882686998,-0.0363922899417384
1.02744109764391,-0.00540797080747583,-0.0364116127138191
1.0280011200448,-0.00541381588908555,-0.0364309346362456
1.0285611424457,-0.00541966407159903,-0.0364502557085644
1.02912116484659,-0.00542551535491528,-0.0364695759303209
1.02968118724749,-0.00543136973893476,-0.0364888953010617
1.03024120964839,-0.00543722722355676,-0.0365082138203324
1.03080123204928,-0.00544308780868052,-0.0365275314876788
1.03136125445018,-0.00544895149420633,-0.0365468483026472
1.03192127685107,-0.00545481828003359,-0.036566164264783
1.03248129925197,-0.00546068816606085,-0.036585479373633
1.03304132165287,-0.0054665611521889,-0.0366047936287427
1.03360134405376,-0.00547243723831682,-0.0366241070296575
1.03416136645466,-0.00547831642434362,-0.0366434195759244
1.03472138885555,-0.00548419871016834,-0.0366627312670885
1.03528141125645,-0.00549008409569177,-0.0366820421026962
1.03584143365735,-0.00549597258081161,-0.0367013520822934
1.03640145605824,-0.00550186416542783,-0.0367206612054257
1.03696147845914,-0.00550775884943931,-0.0367399694716396
1.03752150086003,-0.0055136566327455,-0.0367592768804804
1.03808152326093,-0.00551955751524518,-0.0367785834314947
1.03864154566183,-0.00552546149683821,-0.036797889124228
1.03920156806272,-0.00553136857742213,-0.0368171939582262
1.03976159046362,-0.00553727875689765,-0.0368364979330355
1.04032161286451,-0.00554319203516264,-0.0368558010482015
1.04088163526541,-0.00554910841211603,-0.0368751033032707
1.04144165766631,-0.00555502788765703,-0.0368944046977887
1.0420016800672,-0.00556095046168454,-0.0369137052313011
1.0425617024681,-0.0055668761340976,-0.0369330049033544
1.04312172486899,-0.0055728049047942,-0.0369523037134939
1.04368174726989,-0.00557873677367326,-0.0369716016612664
1.04424176967079,-0.00558467174063421,-0.0369908987462172
1.04480179207168,-0.00559060980557465,-0.037010194967892
1.04536181447258,-0.00559655096839409,-0.0370294903258375
1.04592183687348,-0.00560249522898992,-0.0370487848195993
1.04648185927437,-0.00560844258726166,-0.0370680784487228
1.04704188167527,-0.00561439304310772,-0.0370873712127547
1.04760190407616,-0.00562034659642588,-0.0371066631112403
1.04816192647706,-0.00562630324711533,-0.0371259541437261
1.04872194887796,-0.00563226299507395,-0.0371452443097579
1.04928197127885,-0.0056382258401997,-0.037164533608881
1.04984199367975,-0.00564419178239159,-0.0371838220406422
1.05040201608064,-0.00565016082154762,-0.0372031096045867
1.05096203848154,-0.00565613295756559,-0.037222396300261
1.05152206088244,-0.00566210819034385,-0.0372416821272109
1.05208208328333,-0.00566808651978008,-0.0372609670849819
1.05264210568423,-0.00567406794577314,-0.0372802511731205
1.05320212808512,-0.00568005246822076,-0.037299534391172
1.05376215048602,-0.00568604008702056,-0.037318816738683
1.05432217288692,-0.00569203080207065,-0.0373380982151992
1.05488219528781,-0.00569802461326908,-0.037357378820266
1.05544221768871,-0.00570402152051325,-0.0373766585534302
1.0560022400896,-0.00571002152370088,-0.037395937414237
1.0565622624905,-0.00571602462273094,-0.0374152154022328
1.0571222848914,-0.00572203081749966,-0.0374344925169635
1.05768230729229,-0.00572804010790541,-0.0374537687579744
1.05824232969319,-0.00573405249384542,-0.0374730441248123
1.05880235209408,-0.00574006797521769,-0.0374923186170224
1.05936237449498,-0.00574608655191936,-0.0375115922341514
1.05992239689588,-0.00575210822384861,-0.0375308649757446
1.06048241929677,-0.00575813299090193,-0.0375501368413479
1.06104244169767,-0.00576416085297704,-0.0375694078305078
1.06160246409856,-0.00577019180997136,-0.0375886779427695
1.06216248649946,-0.00577622586178271,-0.0376079471776797
1.06272250890036,-0.00578226300830723,-0.037627215534784
1.06328253130125,-0.00578830324944348,-0.0376464830136278
1.06384255370215,-0.00579434658508714,-0.037665749613758
1.06440257610304,-0.00580039301513617,-0.0376850153347198
1.06496259850394,-0.00580644253948797,-0.0377042801760595
1.06552262090484,-0.00581249515803917,-0.0377235441373231
1.06608264330573,-0.0058185508706862,-0.0377428072180561
1.06664266570663,-0.00582460967732702,-0.037762069417805
1.06720268810752,-0.00583067157785758,-0.0377813307361152
1.06776271050842,-0.00583673657217555,-0.0378005911725332
1.06832273290932,-0.00584280466017741,-0.0378198507266046
1.06888275531021,-0.00584887584175935,-0.0378391093978752
1.06944277771111,-0.00585495011681908,-0.0378583671858914
1.070002800112,-0.0058610274852528,-0.0378776240901986
1.0705628225129,-0.00586710794695696,-0.0378968801103434
1.0711228449138,-0.00587319150182821,-0.0379161352458715
1.07168286731469,-0.00587927814976334,-0.0379353894963283
1.07224288971559,-0.00588536789065839,-0.0379546428612606
1.07280291211648,-0.00589146072440961,-0.0379738953402138
1.07336293451738,-0.00589755665091417,-0.0379931469327343
1.07392295691828,-0.00590365567006851,-0.0380123976383677
1.07448297931917,-0.0059097577817674,-0.0380316474566599
1.07504300172007,-0.00591586298590908,-0.0380508963871572
1.07560302412096,-0.00592197128238775,-0.0380701444294052
1.07616304652186,-0.00592808267110152,-0.0380893915829504
1.07672306892276,-0.00593419715194494,-0.0381086378473385
1.07728309132365,-0.00594031472481475,-0.038127883222115
1.07784311372455,-0.0059464353896067,-0.0381471277068267
1.07840313612545,-0.00595255914621739,-0.0381663713010191
1.07896315852634,-0.00595868599454173,-0.038185614004238
1.07952318092724,-0.00596481593447592,-0.03820485581603
1.08008320332813,-0.00597094896591602,-0.0382240967359404
1.08064322572903,-0.00597708508875805,-0.0382433367635158
1.08120324812993,-0.00598322430289734,-0.0382625758983019
1.08176327053082,-0.00598936660822902,-0.0382818141398444
1.08232329293172,-0.00599551200464921,-0.03830105148769
1.08288331533261,-0.00600166049205407,-0.0383202879413839
1.08344333773351,-0.00600781207033774,-0.0383395235004729
1.08400336013441,-0.00601396673939707,-0.0383587581645026
1.0845633825353,-0.00602012449912645,-0.0383779919330187
1.0851234049362,-0.00602628534942202,-0.0383972248055678
1.08568342733709,-0.00603244929017881,-0.0384164567816952
1.08624344973799,-0.00603861632129143,-0.0384356878609479
1.08680347213889,-0.00604478644265607,-0.0384549180428713
1.08736349453978,-0.00605095965416771,-0.0384741473270111
1.08792351694068,-0.006057135955721,-0.0384933757129141
1.08848353934157,-0.00606331534721078,-0.0385126032001256
1.08904356174247,-0.00606949782853307,-0.0385318297881923
1.08960358414337,-0.00607568339958219,-0.03855105547666
1.09016360654426,-0.00608187206025334,-0.0385702802650742
1.09072362894516,-0.00608806381044104,-0.0385895041529818
1.09128365134605,-0.00609425865004034,-0.038608727139928
1.09184367374695,-0.00610045657894571,-0.0386279492254598
1.09240369614785,-0.00610665759705218,-0.0386471704091227
1.09296371854874,-0.00611286170425428,-0.0386663906904623
1.09352374094964,-0.00611906890044719,-0.0386856100690255
1.09408376335053,-0.00612527918552438,-0.0387048285443578
1.09464378575143,-0.0061314925593812,-0.0387240461160057
1.09520380815233,-0.00613770902191197,-0.0387432627835151
1.09576383055322,-0.0061439285730103,-0.0387624785464317
1.09632385295412,-0.00615015121257108,-0.0387816934043023
1.09688387535501,-0.00615637694048871,-0.0388009073566722
1.09744389775591,-0.00616260575665781,-0.0388201204030881
1.09800392015681,-0.00616883766097164,-0.038839332543096
1.0985639425577,-0.00617507265332502,-0.0388585437762415
1.0991239649586,-0.00618131073361222,-0.0388777541020713
1.09968398735949,-0.00618755190172639,-0.0388969635201311
1.10024400976039,-0.00619379615756208,-0.0389161720299674
1.10080403216129,-0.00620004350101361,-0.038935379631126
1.10136405456218,-0.0062062939319746,-0.0389545863231527
1.10192407696308,-0.00621254745033796,-0.0389737921055945
1.10248409936397,-0.00621880405599843,-0.0389929969779967
1.10304412176487,-0.00622506374884988,-0.039012200939906
1.10360414416577,-0.00623132652878555,-0.0390314039908683
1.10416416656666,-0.00623759239569921,-0.0390506061304293
1.10472418896756,-0.00624386134948367,-0.0390698073581361
1.10528421136845,-0.00625013339003369,-0.0390890076735338
1.10584423376935,-0.00625640851724206,-0.0391082070761695
1.10640425617025,-0.0062626867310022,-0.0391274055655889
1.10696427857114,-0.00626896803120702,-0.0391466031413379
1.10752430097204,-0.00627525241775066,-0.0391657998029633
1.10808432337293,-0.00628153989052607,-0.0391849955500105
1.10864434577383,-0.00628783044942624,-0.0392041903820265
1.10920436817473,-0.00629412409434438,-0.0392233842985571
1.10976439057562,-0.00630042082517359,-0.039242577299148
1.11032441297652,-0.00630672064180681,-0.0392617693833463
1.11088443537742,-0.00631302354413705,-0.0392809605506978
1.11144445777831,-0.00631932953205737,-0.0393001508007482
1.11200448017921,-0.00632563860546028,-0.0393193401330447
1.1125645025801,-0.00633195076423885,-0.0393385285471325
1.113124524981,-0.00633826600828627,-0.0393577160425585
1.1136845473819,-0.00634458433749408,-0.039376902618869
1.11424456978279,-0.00635090575175565,-0.0393960882756095
1.11480459218369,-0.0063572302509634,-0.0394152730123271
1.11536461458458,-0.00636355783500994,-0.0394344568285672
1.11592463698548,-0.00636988850378817,-0.0394536397238768
1.11648465938638,-0.00637622225718943,-0.0394728216978019
1.11704468178727,-0.00638255909510724,-0.0394920027498883
1.11760470418817,-0.00638889901743282,-0.0395111828796831
1.11816472658906,-0.00639524202405896,-0.0395303620867318
1.11872474898996,-0.00640158811487828,-0.0395495403705812
1.11928477139086,-0.00640793728978244,-0.0395687177307774
1.11984479379175,-0.00641428954866308,-0.0395878941668664
1.12040481619265,-0.0064206448914131,-0.0396070696783951
1.12096483859354,-0.00642700331792348,-0.0396262442649092
1.12152486099444,-0.00643336482808717,-0.0396454179259555
1.12208488339534,-0.00643972942179553,-0.0396645906610802
1.12264490579623,-0.00644609709893985,-0.0396837624698292
1.12320492819713,-0.00645246785941279,-0.0397029333517494
1.12376495059802,-0.00645884170310519,-0.0397221033063866
1.12432497299892,-0.00646521862990942,-0.0397412723332878
1.12488499539982,-0.00647159863971679,-0.0397604404319988
1.12544501780071,-0.00647798173241929,-0.0397796076020658
1.12600504020161,-0.00648436790790716,-0.0397987738430359
1.1265650626025,-0.00649075716607247,-0.0398179391544547
1.1271250850034,-0.00649714950680647,-0.0398371035358692
1.1276851074043,-0.00650354493000045,-0.0398562669868256
1.12824512980519,-0.00650994343554572,-0.0398754295068698
1.12880515220609,-0.0065163450233333,-0.0398945910955489
1.12936517460698,-0.00652274969325434,-0.0399137517524087
1.12992519700788,-0.00652915744519994,-0.0399329114769962
1.13048521940878,-0.006535568279061,-0.0399520702688575
1.13104524180967,-0.00654198219472857,-0.0399712281275388
1.13160526421057,-0.0065483991920934,-0.039990385052587
1.13216528661146,-0.00655481927104639,-0.040009541043548
1.13272530901236,-0.0065612424314787,-0.0400286960999689
1.13328533141326,-0.0065676686732801,-0.0400478502213958
1.13384535381415,-0.00657409799634165,-0.0400670034073748
1.13440537621505,-0.00658053040055458,-0.0400861556574531
1.13496539861594,-0.00658696588580817,-0.0401053069711764
1.13552542101684,-0.00659340445199405,-0.040124457348092
1.13608544341774,-0.00659984609900157,-0.040143606787746
1.13664546581863,-0.00660629082672162,-0.0401627552896846
1.13720548821953,-0.00661273863504487,-0.0401819028534548
1.13776551062042,-0.00661918952386057,-0.0402010494786027
1.13832553302132,-0.00662564349306002,-0.0402201951646752
1.13888555542222,-0.00663210054253266,-0.0402393399112187
1.13944557782311,-0.00663856067216807,-0.0402584837177795
1.14000560022401,-0.00664502388185834,-0.0402776265839044
1.14056562262491,-0.00665149017149067,-0.0402967685091401
1.1411256450258,-0.00665795954095563,-0.0403159094930327
1.1416856674267,-0.00666443199014388,-0.0403350495351293
1.14224568982759,-0.00667090751894469,-0.0403541886349758
1.14280571222849,-0.00667738612724789,-0.0403733267921197
1.14336573462939,-0.00668386781494285,-0.040392464006107
1.14392575703028,-0.00669035258191878,-0.0404116002764842
1.14448577943118,-0.00669684042806618,-0.0404307356027984
1.14504580183207,-0.00670333135327398,-0.0404498699845956
1.14560582423297,-0.00670982535743156,-0.0404690034214232
1.14616584663387,-0.00671632244042814,-0.0404881359128273
1.14672586903476,-0.00672282260215309,-0.0405072674583544
1.14728589143566,-0.00672932584249556,-0.0405263980575518
1.14784591383655,-0.0067358321613447,-0.0405455277099654
1.14840593623745,-0.00674234155859006,-0.0405646564151426
1.14896595863835,-0.00674885403412024,-0.0405837841726298
1.14952598103924,-0.00675536958782351,-0.0406029109819733
1.15008600344014,-0.00676188821958936,-0.0406220368427206
1.15064602584103,-0.0067684099293067,-0.0406411617544176
1.15120604824193,-0.00677493471686405,-0.0406602857166117
1.15176607064283,-0.0067814625821509,-0.0406794087288493
1.15232609304372,-0.00678799352505469,-0.0406985307906769
1.15288611544462,-0.00679452754546449,-0.0407176519016419
1.15344613784551,-0.00680106464326958,-0.0407367720612902
1.15400616024641,-0.00680760481835709,-0.0407558912691696
1.15456618264731,-0.00681414807061774,-0.040775009524826
1.1551262050482,-0.00682069439993642,-0.0407941268278064
1.1556862274491,-0.00682724380620369,-0.0408132431776581
1.15624624984999,-0.00683379628930666,-0.0408323585739271
1.15680627225089,-0.00684035184913469,-0.0408514730161611
1.15736629465179,-0.00684691048557451,-0.0408705865039065
1.15792631705268,-0.00685347219851542,-0.0408896990367096
1.15848633945358,-0.00686003698784474,-0.0409088106141183
1.15904636185447,-0.00686660485345028,-0.0409279212356784
1.15960638425537,-0.00687317579522009,-0.0409470309009377
1.16016640665627,-0.00687974981304175,-0.0409661396094427
1.16072642905716,-0.00688632690680297,-0.0409852473607399
1.16128645145806,-0.00689290707639094,-0.0410043541543771
1.16184647385895,-0.00689949032169427,-0.0410234599899001
1.16240649625985,-0.00690607664260056,-0.0410425648668567
1.16296651866075,-0.00691266603899597,-0.0410616687847937
1.16352654106164,-0.00691925851076852,-0.0410807717432574
1.16408656346254,-0.00692585405780555,-0.0410998737417956
1.16464658586343,-0.0069324526799954,-0.0411189747799544
1.16520660826433,-0.00693905437722311,-0.0411380748572817
1.16576663066523,-0.00694565914937685,-0.0411571739733241
1.16632665306612,-0.00695226699634375,-0.0411762721276283
1.16688667546702,-0.00695887791801118,-0.0411953693197417
1.16744669786791,-0.00696549191426521,-0.0412144655492108
1.16800672026881,-0.0069721089849936,-0.0412335608155834
1.16856674266971,-0.00697872913008281,-0.0412526551184061
1.1691267650706,-0.00698535234941885,-0.0412717484572257
1.1696867874715,-0.00699197864288904,-0.0412908408315899
1.17024680987239,-0.00699860801038164,-0.0413099322410448
1.17080683227329,-0.00700524045177991,-0.0413290226851387
1.17136685467419,-0.00701187596697241,-0.041348112163418
1.17192687707508,-0.00701851455584512,-0.0413672006754296
1.17248689947598,-0.00702515621828437,-0.0413862882207213
1.17304692187688,-0.00703180095417643,-0.0414053747988398
1.17360694427777,-0.00703844876340807,-0.0414244604093318
1.17416696667867,-0.0070450996458644,-0.0414435450517454
1.17472698907956,-0.00705175360143209,-0.041462628725627
1.17528701148046,-0.00705841062999756,-0.0414817114305244
1.17584703388136,-0.00706507073144685,-0.0415007931659843
1.17640705628225,-0.00707173390566412,-0.0415198739315539
1.17696707868315,-0.0070784001525371,-0.0415389537267809
1.17752710108404,-0.00708506947195127,-0.0415580325512117
1.17808712348494,-0.00709174186379086,-0.0415771104043947
1.17864714588584,-0.00709841732794307,-0.0415961872858763
1.17920716828673,-0.00710509586429398,-0.0416152631952035
1.17976719068763,-0.00711177747272809,-0.0416343381319243
1.18032721308852,-0.00711846215313017,-0.0416534120955855
1.18088723548942,-0.00712514990538676,-0.0416724850857349
1.18144725789032,-0.00713184072938313,-0.0416915571019194
1.18200728029121,-0.00713853462500345,-0.0417106281436863
1.18256730269211,-0.00714523159213454,-0.0417296982105831
1.183127325093,-0.00715193163066135,-0.0417487673021566
1.1836873474939,-0.00715863474046909,-0.0417678354179549
1.1842473698948,-0.00716534092144161,-0.0417869025575252
1.18480739229569,-0.00717205017346584,-0.0418059687204141
1.18536741469659,-0.00717876249642837,-0.0418250339061694
1.18592743709748,-0.00718547789021452,-0.0418440981143378
1.18648745949838,-0.0071921963547154,-0.0418631613444663
1.18704748189928,-0.00719891788983083,-0.0418822235960993
1.18760750430017,-0.00720564249552215,-0.0419012848687708
1.18816752670107,-0.00721237013520349,-0.0419203451683035
1.18872754910196,-0.00721910091694132,-0.0419394044756318
1.18928757150286,-0.00722583473335554,-0.0419584628087583
1.18984759390376,-0.00723257161967881,-0.0419775201611489
1.19040761630465,-0.00723931157587374,-0.041996576532337
1.19096763870555,-0.00724605460183642,-0.0420156319218688
1.19152766110644,-0.00725280069745687,-0.0420346863292902
1.19208768350734,-0.00725954986262295,-0.0420537397541488
1.19264770590824,-0.00726630209721812,-0.0420727921959918
